
T1510 000:969 SEGGER J-Link V4.15n (beta) Log File (0000ms, 0968ms total)
T1510 000:969 DLL Compiled: Jun 18 2010 19:55:09 (0000ms, 0968ms total)
T1510 000:969 Logging started @ 2014-01-26 13:58 (0000ms, 0968ms total)
T1510 000:969 JLINK_SetWarnOutHandler(...) (0000ms, 0968ms total)
T1510 000:969 JLINK_OpenEx(...)
Firmware: J-Link ARM V8 compiled Sep 20 2012 13:27:01
Hardware: V8.00
S/N: 99999994
Feature(s): RDI,FlashDL,FlashBP,JFlash,GDBFULL  returns O.K. (0224ms, 0968ms total)
T1510 001:193 JLINK_SetErrorOutHandler(...) (0000ms, 1192ms total)
T1510 001:193 JLINK_ExecCommand("ProjectFile = "E:\myrtt\mytest\project\JLinkSettings.ini"", ...)  returns 0x00 (0000ms, 1192ms total)
T1510 001:199 JLINK_ExecCommand("DisableConnectionTimeout", ...)  returns 0x00 (0000ms, 1192ms total)
T1510 001:199 JLINK_TIF_Select(JLINKARM_TIF_JTAG)  returns 0x00 (0000ms, 1192ms total)
T1510 001:199 JLINK_SetSpeed(2000) (0000ms, 1192ms total)
T1510 001:199 JLINK_GetHardwareVersion()  returns 0x13880 (0000ms, 1192ms total)
T1510 001:199 JLINK_GetDLLVersion()  returns 41514 (0000ms, 1192ms total)
T1510 001:199 JLINK_GetFirmwareString(...) (0000ms, 1192ms total)
T1510 001:206 JLINK_GetDLLVersion()  returns 41514 (0000ms, 1192ms total)
T1510 001:206 JLINK_GetCompileDateTime() (0000ms, 1192ms total)
T1510 001:208 JLINK_GetFirmwareString(...) (0000ms, 1192ms total)
T1510 001:209 JLINK_GetHardwareVersion()  returns 0x13880 (0000ms, 1192ms total)
T1510 001:219 JLINK_Reset() >0x2F8 JTAG>TotalIRLen = 9, IRPrint = 0x0011 >0x30 JTAG> >0x210 JTAG> >0x118 JTAG> >0xD8 JTAG> >0x198 JTAG> >0x38 JTAG> >0x118 JTAG> >0xD8 JTAG> >0x2F0 JTAG> >0x2F0 JTAG> >0x198 JTAG> >0x198 JTAG>Found Cortex-M3 r1p1, Little endian. >0xD8 JTAG> >0x240 JTAG> >0x198 JTAG> >0x198 JTAG>TPIU fitted. >0x198 JTAG>ETM fitted. >0x198 JTAG>  FPUnit: 6 code (BP) slots and 2 literal slots >0x198 JTAG> >0x250 JTAG> >0x240 JTAG> >0x280 JTAG> >0x198 JTAG> >0x198 JTAG> >0x240 JTAG>
 >0x240 JTAG> >0x198 JTAG> >0x198 JTAG> >0x17A8 JTAG> >0x240 JTAG> >0x198 JTAG> >0x17A8 JTAG> >0x198 JTAG> -- CPU_WriteMem(4 bytes @ 0xE000EDFC) -- CPU_WriteMem(4 bytes @ 0xE0001028) -- CPU_WriteMem(4 bytes @ 0xE0001038) -- CPU_WriteMem(4 bytes @ 0xE0001048) -- CPU_WriteMem(4 bytes @ 0xE0001058) (0084ms, 1192ms total)
T1510 001:303 JLINK_GetIdData(...) ScanLen=9 NumDevices=2 aId[0]=0x3BA00477 aIrRead[0]=0 aScanLen[0]=0 aScanRead[0]=0 (0001ms, 1276ms total)
T1510 001:304 JLINK_JTAG_GetDeviceID(DeviceIndex = 0)  returns 0x3BA00477 (0000ms, 1277ms total)
T1510 001:304 JLINK_JTAG_GetDeviceInfo(DeviceIndex = 0)  returns 0x00 (0000ms, 1277ms total)
T1510 001:304 JLINK_JTAG_GetDeviceID(DeviceIndex = 1)  returns 0x6414041 (0000ms, 1277ms total)
T1510 001:304 JLINK_JTAG_GetDeviceInfo(DeviceIndex = 1)  returns 0x00 (0000ms, 1277ms total)
T1510 001:304 JLINK_GetDebugInfo(0x100) -- Value=0xE00FF003  returns 0x00 (0000ms, 1277ms total)
T1510 001:306 JLINK_ReadMem (0xE00FF000, 0x0018 Bytes, ...) -- CPU_ReadMem(24 bytes @ 0xE00FF000) -- Data:  03 F0 F0 FF 03 20 F0 FF 03 30 F0 FF 03 10 F0 FF ...  returns 0x00 (0002ms, 1277ms total)
T1510 001:308 JLINK_ReadMemU32(0xE000ED00, 0x0001 Items, ...) -- CPU_ReadMem(4 bytes @ 0xE000ED00) -- Data:  31 C2 1F 41  returns 0x01 (0001ms, 1279ms total)
T1510 001:309 JLINK_Halt()  returns 0x00 (0000ms, 1280ms total)
T1510 001:309 JLINK_IsHalted()  returns TRUE (0000ms, 1280ms total)
T1510 001:309 JLINK_ReadMemU32(0xE000EDF0, 0x0001 Items, ...) -- CPU_ReadMem(4 bytes @ 0xE000EDF0) -- Data:  03 00 03 00  returns 0x01 (0001ms, 1280ms total)
T1510 001:310 JLINK_WriteU32(0xE000EDF0, 0xA05F0003) -- CPU_WriteMem(4 bytes @ 0xE000EDF0)  returns 0x00 (0001ms, 1281ms total)
T1510 001:311 JLINK_WriteU32(0xE000EDFC, 0x01000000) -- CPU_WriteMem(4 bytes @ 0xE000EDFC)  returns 0x00 (0001ms, 1282ms total)
T1510 001:312 JLINK_ReadMemU32(0xE0002000, 0x0001 Items, ...) -- CPU_ReadMem(4 bytes @ 0xE0002000) -- Data:  60 02 00 00  returns 0x01 (0001ms, 1283ms total)
T1510 001:313 JLINK_ReadMemU32(0xE0001000, 0x0001 Items, ...) -- CPU_ReadMem(4 bytes @ 0xE0001000) -- Data:  01 00 00 40  returns 0x01 (0001ms, 1284ms total)
T1510 001:321 JLINK_ExecCommand("Device = STM32F103ZE", ...)
                JLINK_ExecCommand("map ram 0x20000000 - 0x2000FFFF", ...)  returns 0x00 (0000ms, 0000ms total)
                JLINK_AddMirrorAreaEx(Addr = 0x00000000, Size = 0x00000000) (0000ms, 0000ms total)
                returns 0x00 (0000ms, 1285ms total)
T1510 001:322 JLINK_GetHWStatus(...)  returns 0x00 (0001ms, 1285ms total)
T1510 001:332 JLINK_GetNumBPUnits(Type = 0xFFFFFF00) >0x2F8 JTAG>TotalIRLen = 9, IRPrint = 0x0011 >0x30 JTAG> >0x210 JTAG> >0x118 JTAG> >0xD8 JTAG> >0x198 JTAG> >0x38 JTAG> >0x118 JTAG> >0xD8 JTAG> >0x2F0 JTAG> >0x2F0 JTAG> >0x198 JTAG> >0x198 JTAG>Found Cortex-M3 r1p1, Little endian. >0xD8 JTAG> >0x240 JTAG> >0x198 JTAG> >0x198 JTAG>TPIU fitted. >0x198 JTAG>ETM fitted. >0x198 JTAG>  FPUnit: 6 code (BP) slots and 2 literal slots >0x198 JTAG>  returns 0x06 (0037ms, 1286ms total)
T1510 001:369 JLINK_GetNumBPUnits(Type = 0xF0)  returns 0x800 (0000ms, 1323ms total)
T1510 001:369 JLINK_GetNumWPUnits()  returns 0x04 (0000ms, 1323ms total)
T1510 001:395 JLINK_GetSpeed()  returns 0x7D0 (0001ms, 1323ms total)
T1510 001:399 JLINK_ReadMemU32(0xE000E004, 0x0001 Items, ...) -- CPU_ReadMem(4 bytes @ 0xE000E004) -- Data:  01 00 00 00  returns 0x01 (0002ms, 1324ms total)
T1510 001:401 JLINK_WriteMem(0xE0001000, 0x001C Bytes, ...) -- Data:  01 00 00 00 00 00 00 00 00 00 00 00 00 00 00 00 ... -- CPU_WriteMem(28 bytes @ 0xE0001000)  returns 0x1C (0001ms, 1326ms total)
T1510 001:402 JLINK_ReadMem (0xE0001000, 0x001C Bytes, ...) -- CPU_ReadMem(28 bytes @ 0xE0001000) -- Data:  01 00 00 40 00 00 00 00 00 00 00 00 00 00 00 00 ...  returns 0x00 (0001ms, 1327ms total)
T1510 001:403 JLINK_Halt()  returns 0x00 (0000ms, 1328ms total)
T1510 001:403 JLINK_IsHalted()  returns TRUE (0000ms, 1328ms total)
T1510 001:407 JLINK_WriteMem(0x20000000, 0x0164 Bytes, ...) -- Data:  00 BE 0A E0 0D 78 2D 06 68 40 08 24 40 00 00 D3 ... -- CPU_WriteMem(356 bytes @ 0x20000000)  returns 0x164 (0004ms, 1328ms total)
T1510 001:411 JLINK_WriteReg(R0, 0x08000000)  returns 0x00 (0000ms, 1332ms total)
T1510 001:411 JLINK_WriteReg(R1, 0x007A1200)  returns 0x00 (0000ms, 1332ms total)
T1510 001:411 JLINK_WriteReg(R2, 0x00000001)  returns 0x00 (0000ms, 1332ms total)
T1510 001:411 JLINK_WriteReg(R3, 0x00000000)  returns 0x00 (0000ms, 1332ms total)
T1510 001:411 JLINK_WriteReg(R4, 0x00000000)  returns 0x00 (0000ms, 1332ms total)
T1510 001:411 JLINK_WriteReg(R5, 0x00000000)  returns 0x00 (0000ms, 1332ms total)
T1510 001:411 JLINK_WriteReg(R6, 0x00000000)  returns 0x00 (0000ms, 1332ms total)
T1510 001:411 JLINK_WriteReg(R7, 0x00000000)  returns 0x00 (0000ms, 1332ms total)
T1510 001:411 JLINK_WriteReg(R8, 0x00000000)  returns 0x00 (0000ms, 1332ms total)
T1510 001:411 JLINK_WriteReg(R9, 0x20000160)  returns 0x00 (0000ms, 1332ms total)
T1510 001:411 JLINK_WriteReg(R10, 0x00000000)  returns 0x00 (0000ms, 1332ms total)
T1510 001:411 JLINK_WriteReg(R11, 0x00000000)  returns 0x00 (0000ms, 1332ms total)
T1510 001:411 JLINK_WriteReg(R12, 0x00000000)  returns 0x00 (0000ms, 1332ms total)
T1510 001:411 JLINK_WriteReg(R13, 0x20000800)  returns 0x00 (0000ms, 1332ms total)
T1510 001:411 JLINK_WriteReg(R14, 0x20000001)  returns 0x00 (0000ms, 1332ms total)
T1510 001:411 JLINK_WriteReg(R15, 0x20000038)  returns 0x00 (0000ms, 1332ms total)
T1510 001:411 JLINK_WriteReg(XPSR, 0x01000000)  returns 0x00 (0000ms, 1332ms total)
T1510 001:411 JLINK_WriteReg(MSP, 0x20000800)  returns 0x00 (0000ms, 1332ms total)
T1510 001:411 JLINK_WriteReg(PSP, 0x20000800)  returns 0x00 (0000ms, 1332ms total)
T1510 001:411 JLINK_WriteReg(CFBP, 0x00000000)  returns 0x00 (0000ms, 1332ms total)
T1510 001:411 JLINK_SetBPEx(Addr = 0x20000000, Type = 0xFFFFFFF2) -- CPU_ReadMem(2 bytes @ 0x20000000)  returns 0x00000001 (0001ms, 1332ms total)
T1510 001:412 JLINK_Go() -- CPU_WriteMem(2 bytes @ 0x20000000) -- CPU_WriteMem(4 bytes @ 0xE0002008) -- CPU_WriteMem(4 bytes @ 0xE000200C) -- CPU_WriteMem(4 bytes @ 0xE0002010) -- CPU_WriteMem(4 bytes @ 0xE0002014) -- CPU_WriteMem(4 bytes @ 0xE0002018) -- CPU_WriteMem(4 bytes @ 0xE000201C) (0010ms, 1333ms total)
T1510 001:422 JLINK_IsHalted() -- CPU_ReadMem(2 bytes @ 0x20000000)  returns TRUE (0007ms, 1343ms total)
T1510 001:429 JLINK_ReadReg(R15)  returns 0x20000000 (0000ms, 1343ms total)
T1510 001:429 JLINK_ClrBPEx(BPHandle = 0x00000001)  returns 0x00 (0000ms, 1343ms total)
T1510 001:429 JLINK_ReadReg(R0)  returns 0x00000000 (0000ms, 1343ms total)
T1510 001:429 JLINK_WriteReg(R0, 0x08000000)  returns 0x00 (0000ms, 1343ms total)
T1510 001:429 JLINK_WriteReg(R1, 0x007A1200)  returns 0x00 (0000ms, 1343ms total)
T1510 001:429 JLINK_WriteReg(R2, 0x00000001)  returns 0x00 (0000ms, 1343ms total)
T1510 001:429 JLINK_WriteReg(R3, 0x00000000)  returns 0x00 (0000ms, 1343ms total)
T1510 001:429 JLINK_WriteReg(R4, 0x00000000)  returns 0x00 (0000ms, 1343ms total)
T1510 001:429 JLINK_WriteReg(R5, 0x00000000)  returns 0x00 (0000ms, 1343ms total)
T1510 001:429 JLINK_WriteReg(R6, 0x00000000)  returns 0x00 (0000ms, 1343ms total)
T1510 001:429 JLINK_WriteReg(R7, 0x00000000)  returns 0x00 (0000ms, 1343ms total)
T1510 001:429 JLINK_WriteReg(R8, 0x00000000)  returns 0x00 (0000ms, 1343ms total)
T1510 001:429 JLINK_WriteReg(R9, 0x20000160)  returns 0x00 (0000ms, 1343ms total)
T1510 001:429 JLINK_WriteReg(R10, 0x00000000)  returns 0x00 (0000ms, 1343ms total)
T1510 001:429 JLINK_WriteReg(R11, 0x00000000)  returns 0x00 (0000ms, 1343ms total)
T1510 001:429 JLINK_WriteReg(R12, 0x00000000)  returns 0x00 (0000ms, 1343ms total)
T1510 001:429 JLINK_WriteReg(R13, 0x20000800)  returns 0x00 (0000ms, 1343ms total)
T1510 001:429 JLINK_WriteReg(R14, 0x20000001)  returns 0x00 (0000ms, 1343ms total)
T1510 001:429 JLINK_WriteReg(R15, 0x2000007C)  returns 0x00 (0000ms, 1343ms total)
T1510 001:429 JLINK_WriteReg(XPSR, 0x01000000)  returns 0x00 (0000ms, 1343ms total)
T1510 001:429 JLINK_WriteReg(MSP, 0x20000800)  returns 0x00 (0000ms, 1343ms total)
T1510 001:429 JLINK_WriteReg(PSP, 0x20000800)  returns 0x00 (0000ms, 1343ms total)
T1510 001:429 JLINK_WriteReg(CFBP, 0x00000000)  returns 0x00 (0000ms, 1343ms total)
T1510 001:429 JLINK_SetBPEx(Addr = 0x20000000, Type = 0xFFFFFFF2)  returns 0x00000002 (0000ms, 1343ms total)
T1510 001:429 JLINK_Go() -- CPU_WriteMem(4 bytes @ 0xE0002008) -- CPU_WriteMem(4 bytes @ 0xE000200C) -- CPU_WriteMem(4 bytes @ 0xE0002010) -- CPU_WriteMem(4 bytes @ 0xE0002014) -- CPU_WriteMem(4 bytes @ 0xE0002018) -- CPU_WriteMem(4 bytes @ 0xE000201C) (0009ms, 1343ms total)
T1510 001:438 JLINK_IsHalted()  returns FALSE (0001ms, 1352ms total)
T1510 001:489 JLINK_IsHalted() -- CPU_ReadMem(2 bytes @ 0x20000000)  returns TRUE (0007ms, 1352ms total)
T1510 001:496 JLINK_ReadReg(R15)  returns 0x20000000 (0000ms, 1352ms total)
T1510 001:496 JLINK_ClrBPEx(BPHandle = 0x00000002)  returns 0x00 (0000ms, 1352ms total)
T1510 001:496 JLINK_ReadReg(R0)  returns 0x00000000 (0000ms, 1352ms total)
T1510 001:548 JLINK_WriteReg(R0, 0x00000001)  returns 0x00 (0000ms, 1352ms total)
T1510 001:548 JLINK_WriteReg(R1, 0x007A1200)  returns 0x00 (0000ms, 1352ms total)
T1510 001:548 JLINK_WriteReg(R2, 0x00000001)  returns 0x00 (0000ms, 1352ms total)
T1510 001:548 JLINK_WriteReg(R3, 0x00000000)  returns 0x00 (0000ms, 1352ms total)
T1510 001:548 JLINK_WriteReg(R4, 0x00000000)  returns 0x00 (0000ms, 1352ms total)
T1510 001:548 JLINK_WriteReg(R5, 0x00000000)  returns 0x00 (0000ms, 1352ms total)
T1510 001:548 JLINK_WriteReg(R6, 0x00000000)  returns 0x00 (0000ms, 1352ms total)
T1510 001:548 JLINK_WriteReg(R7, 0x00000000)  returns 0x00 (0000ms, 1352ms total)
T1510 001:548 JLINK_WriteReg(R8, 0x00000000)  returns 0x00 (0000ms, 1352ms total)
T1510 001:548 JLINK_WriteReg(R9, 0x20000160)  returns 0x00 (0000ms, 1352ms total)
T1510 001:548 JLINK_WriteReg(R10, 0x00000000)  returns 0x00 (0000ms, 1352ms total)
T1510 001:548 JLINK_WriteReg(R11, 0x00000000)  returns 0x00 (0000ms, 1352ms total)
T1510 001:548 JLINK_WriteReg(R12, 0x00000000)  returns 0x00 (0000ms, 1352ms total)
T1510 001:548 JLINK_WriteReg(R13, 0x20000800)  returns 0x00 (0000ms, 1352ms total)
T1510 001:548 JLINK_WriteReg(R14, 0x20000001)  returns 0x00 (0000ms, 1352ms total)
T1510 001:548 JLINK_WriteReg(R15, 0x2000006A)  returns 0x00 (0000ms, 1352ms total)
T1510 001:548 JLINK_WriteReg(XPSR, 0x01000000)  returns 0x00 (0000ms, 1352ms total)
T1510 001:548 JLINK_WriteReg(MSP, 0x20000800)  returns 0x00 (0000ms, 1352ms total)
T1510 001:548 JLINK_WriteReg(PSP, 0x20000800)  returns 0x00 (0000ms, 1352ms total)
T1510 001:549 JLINK_WriteReg(CFBP, 0x00000000)  returns 0x00 (0000ms, 1352ms total)
T1510 001:549 JLINK_SetBPEx(Addr = 0x20000000, Type = 0xFFFFFFF2)  returns 0x00000003 (0000ms, 1352ms total)
T1510 001:549 JLINK_Go() -- CPU_WriteMem(4 bytes @ 0xE0002008) -- CPU_WriteMem(4 bytes @ 0xE000200C) -- CPU_WriteMem(4 bytes @ 0xE0002010) -- CPU_WriteMem(4 bytes @ 0xE0002014) -- CPU_WriteMem(4 bytes @ 0xE0002018) -- CPU_WriteMem(4 bytes @ 0xE000201C) (0010ms, 1352ms total)
T1510 001:559 JLINK_IsHalted() -- CPU_ReadMem(2 bytes @ 0x20000000)  returns TRUE (0007ms, 1362ms total)
T1510 001:566 JLINK_ReadReg(R15)  returns 0x20000000 (0000ms, 1362ms total)
T1510 001:566 JLINK_ClrBPEx(BPHandle = 0x00000003)  returns 0x00 (0000ms, 1362ms total)
T1510 001:566 JLINK_ReadReg(R0)  returns 0x00000000 (0000ms, 1362ms total)
T1510 001:571 JLINK_WriteMem(0x20000000, 0x0164 Bytes, ...) -- Data:  00 BE 0A E0 0D 78 2D 06 68 40 08 24 40 00 00 D3 ... -- CPU_WriteMem(356 bytes @ 0x20000000)  returns 0x164 (0003ms, 1362ms total)
T1510 001:574 JLINK_WriteReg(R0, 0x08000000)  returns 0x00 (0000ms, 1365ms total)
T1510 001:574 JLINK_WriteReg(R1, 0x007A1200)  returns 0x00 (0000ms, 1365ms total)
T1510 001:574 JLINK_WriteReg(R2, 0x00000002)  returns 0x00 (0000ms, 1365ms total)
T1510 001:574 JLINK_WriteReg(R3, 0x00000000)  returns 0x00 (0000ms, 1365ms total)
T1510 001:574 JLINK_WriteReg(R4, 0x00000000)  returns 0x00 (0000ms, 1365ms total)
T1510 001:574 JLINK_WriteReg(R5, 0x00000000)  returns 0x00 (0000ms, 1365ms total)
T1510 001:574 JLINK_WriteReg(R6, 0x00000000)  returns 0x00 (0000ms, 1365ms total)
T1510 001:574 JLINK_WriteReg(R7, 0x00000000)  returns 0x00 (0000ms, 1365ms total)
T1510 001:574 JLINK_WriteReg(R8, 0x00000000)  returns 0x00 (0000ms, 1365ms total)
T1510 001:574 JLINK_WriteReg(R9, 0x20000160)  returns 0x00 (0000ms, 1365ms total)
T1510 001:574 JLINK_WriteReg(R10, 0x00000000)  returns 0x00 (0000ms, 1365ms total)
T1510 001:574 JLINK_WriteReg(R11, 0x00000000)  returns 0x00 (0000ms, 1365ms total)
T1510 001:574 JLINK_WriteReg(R12, 0x00000000)  returns 0x00 (0000ms, 1365ms total)
T1510 001:575 JLINK_WriteReg(R13, 0x20000800)  returns 0x00 (0000ms, 1366ms total)
T1510 001:575 JLINK_WriteReg(R14, 0x20000001)  returns 0x00 (0000ms, 1366ms total)
T1510 001:575 JLINK_WriteReg(R15, 0x20000038)  returns 0x00 (0000ms, 1366ms total)
T1510 001:575 JLINK_WriteReg(XPSR, 0x01000000)  returns 0x00 (0000ms, 1366ms total)
T1510 001:575 JLINK_WriteReg(MSP, 0x20000800)  returns 0x00 (0000ms, 1366ms total)
T1510 001:575 JLINK_WriteReg(PSP, 0x20000800)  returns 0x00 (0000ms, 1366ms total)
T1510 001:575 JLINK_WriteReg(CFBP, 0x00000000)  returns 0x00 (0000ms, 1366ms total)
T1510 001:575 JLINK_SetBPEx(Addr = 0x20000000, Type = 0xFFFFFFF2) -- CPU_ReadMem(2 bytes @ 0x20000000)  returns 0x00000004 (0001ms, 1366ms total)
T1510 001:576 JLINK_Go() -- CPU_WriteMem(2 bytes @ 0x20000000) -- CPU_WriteMem(4 bytes @ 0xE0002008) -- CPU_WriteMem(4 bytes @ 0xE000200C) -- CPU_WriteMem(4 bytes @ 0xE0002010) -- CPU_WriteMem(4 bytes @ 0xE0002014) -- CPU_WriteMem(4 bytes @ 0xE0002018) -- CPU_WriteMem(4 bytes @ 0xE000201C) (0009ms, 1367ms total)
T1510 001:585 JLINK_IsHalted() -- CPU_ReadMem(2 bytes @ 0x20000000)  returns TRUE (0007ms, 1376ms total)
T1510 001:592 JLINK_ReadReg(R15)  returns 0x20000000 (0000ms, 1376ms total)
T1510 001:592 JLINK_ClrBPEx(BPHandle = 0x00000004)  returns 0x00 (0000ms, 1376ms total)
T1510 001:592 JLINK_ReadReg(R0)  returns 0x00000000 (0000ms, 1376ms total)
T1510 001:593 JLINK_WriteMem(0x20000164, 0x0400 Bytes, ...) -- Data:  18 31 00 20 85 8D 00 08 25 06 00 08 45 38 00 08 ... -- CPU_WriteMem(1024 bytes @ 0x20000164)  returns 0x400 (0007ms, 1376ms total)
T1510 001:601 JLINK_WriteReg(R0, 0x08000000)  returns 0x00 (0000ms, 1383ms total)
T1510 001:601 JLINK_WriteReg(R1, 0x00000400)  returns 0x00 (0000ms, 1383ms total)
T1510 001:601 JLINK_WriteReg(R2, 0x20000164)  returns 0x00 (0000ms, 1383ms total)
T1510 001:601 JLINK_WriteReg(R3, 0x00000000)  returns 0x00 (0000ms, 1383ms total)
T1510 001:601 JLINK_WriteReg(R4, 0x00000000)  returns 0x00 (0000ms, 1383ms total)
T1510 001:601 JLINK_WriteReg(R5, 0x00000000)  returns 0x00 (0000ms, 1383ms total)
T1510 001:601 JLINK_WriteReg(R6, 0x00000000)  returns 0x00 (0000ms, 1383ms total)
T1510 001:601 JLINK_WriteReg(R7, 0x00000000)  returns 0x00 (0000ms, 1383ms total)
T1510 001:601 JLINK_WriteReg(R8, 0x00000000)  returns 0x00 (0000ms, 1383ms total)
T1510 001:601 JLINK_WriteReg(R9, 0x20000160)  returns 0x00 (0000ms, 1383ms total)
T1510 001:601 JLINK_WriteReg(R10, 0x00000000)  returns 0x00 (0000ms, 1383ms total)
T1510 001:601 JLINK_WriteReg(R11, 0x00000000)  returns 0x00 (0000ms, 1383ms total)
T1510 001:601 JLINK_WriteReg(R12, 0x00000000)  returns 0x00 (0000ms, 1383ms total)
T1510 001:601 JLINK_WriteReg(R13, 0x20000800)  returns 0x00 (0000ms, 1383ms total)
T1510 001:601 JLINK_WriteReg(R14, 0x20000001)  returns 0x00 (0000ms, 1383ms total)
T1510 001:601 JLINK_WriteReg(R15, 0x200000F4)  returns 0x00 (0000ms, 1383ms total)
T1510 001:601 JLINK_WriteReg(XPSR, 0x01000000)  returns 0x00 (0000ms, 1383ms total)
T1510 001:601 JLINK_WriteReg(MSP, 0x20000800)  returns 0x00 (0000ms, 1383ms total)
T1510 001:601 JLINK_WriteReg(PSP, 0x20000800)  returns 0x00 (0000ms, 1383ms total)
T1510 001:601 JLINK_WriteReg(CFBP, 0x00000000)  returns 0x00 (0000ms, 1383ms total)
T1510 001:601 JLINK_SetBPEx(Addr = 0x20000000, Type = 0xFFFFFFF2)  returns 0x00000005 (0000ms, 1383ms total)
T1510 001:601 JLINK_Go() -- CPU_WriteMem(4 bytes @ 0xE0002008) -- CPU_WriteMem(4 bytes @ 0xE000200C) -- CPU_WriteMem(4 bytes @ 0xE0002010) -- CPU_WriteMem(4 bytes @ 0xE0002014) -- CPU_WriteMem(4 bytes @ 0xE0002018) -- CPU_WriteMem(4 bytes @ 0xE000201C) (0008ms, 1383ms total)
T1510 001:609 JLINK_IsHalted()  returns FALSE (0001ms, 1391ms total)
T1510 001:660 JLINK_IsHalted() -- CPU_ReadMem(2 bytes @ 0x20000000)  returns TRUE (0007ms, 1391ms total)
T1510 001:667 JLINK_ReadReg(R15)  returns 0x20000000 (0000ms, 1391ms total)
T1510 001:667 JLINK_ClrBPEx(BPHandle = 0x00000005)  returns 0x00 (0000ms, 1391ms total)
T1510 001:667 JLINK_ReadReg(R0)  returns 0x00000000 (0000ms, 1391ms total)
T1510 001:668 JLINK_WriteMem(0x20000164, 0x0400 Bytes, ...) -- Data:  0A F0 7B FB 10 BD 10 B5 08 F0 3C FC FF F7 E8 FF ... -- CPU_WriteMem(1024 bytes @ 0x20000164)  returns 0x400 (0007ms, 1391ms total)
T1510 001:675 JLINK_WriteReg(R0, 0x08000400)  returns 0x00 (0000ms, 1398ms total)
T1510 001:675 JLINK_WriteReg(R1, 0x00000400)  returns 0x00 (0000ms, 1398ms total)
T1510 001:675 JLINK_WriteReg(R2, 0x20000164)  returns 0x00 (0000ms, 1398ms total)
T1510 001:675 JLINK_WriteReg(R3, 0x00000000)  returns 0x00 (0000ms, 1398ms total)
T1510 001:675 JLINK_WriteReg(R4, 0x00000000)  returns 0x00 (0000ms, 1398ms total)
T1510 001:675 JLINK_WriteReg(R5, 0x00000000)  returns 0x00 (0000ms, 1398ms total)
T1510 001:675 JLINK_WriteReg(R6, 0x00000000)  returns 0x00 (0000ms, 1398ms total)
T1510 001:675 JLINK_WriteReg(R7, 0x00000000)  returns 0x00 (0000ms, 1398ms total)
T1510 001:675 JLINK_WriteReg(R8, 0x00000000)  returns 0x00 (0000ms, 1398ms total)
T1510 001:675 JLINK_WriteReg(R9, 0x20000160)  returns 0x00 (0000ms, 1398ms total)
T1510 001:675 JLINK_WriteReg(R10, 0x00000000)  returns 0x00 (0000ms, 1398ms total)
T1510 001:675 JLINK_WriteReg(R11, 0x00000000)  returns 0x00 (0000ms, 1398ms total)
T1510 001:675 JLINK_WriteReg(R12, 0x00000000)  returns 0x00 (0000ms, 1398ms total)
T1510 001:675 JLINK_WriteReg(R13, 0x20000800)  returns 0x00 (0000ms, 1398ms total)
T1510 001:675 JLINK_WriteReg(R14, 0x20000001)  returns 0x00 (0000ms, 1398ms total)
T1510 001:675 JLINK_WriteReg(R15, 0x200000F4)  returns 0x00 (0000ms, 1398ms total)
T1510 001:675 JLINK_WriteReg(XPSR, 0x01000000)  returns 0x00 (0000ms, 1398ms total)
T1510 001:675 JLINK_WriteReg(MSP, 0x20000800)  returns 0x00 (0000ms, 1398ms total)
T1510 001:675 JLINK_WriteReg(PSP, 0x20000800)  returns 0x00 (0000ms, 1398ms total)
T1510 001:675 JLINK_WriteReg(CFBP, 0x00000000)  returns 0x00 (0000ms, 1398ms total)
T1510 001:675 JLINK_SetBPEx(Addr = 0x20000000, Type = 0xFFFFFFF2)  returns 0x00000006 (0000ms, 1398ms total)
T1510 001:675 JLINK_Go() -- CPU_WriteMem(4 bytes @ 0xE0002008) -- CPU_WriteMem(4 bytes @ 0xE000200C) -- CPU_WriteMem(4 bytes @ 0xE0002010) -- CPU_WriteMem(4 bytes @ 0xE0002014) -- CPU_WriteMem(4 bytes @ 0xE0002018) -- CPU_WriteMem(4 bytes @ 0xE000201C) (0009ms, 1398ms total)
T1510 001:684 JLINK_IsHalted()  returns FALSE (0001ms, 1407ms total)
T1510 001:735 JLINK_IsHalted() -- CPU_ReadMem(2 bytes @ 0x20000000)  returns TRUE (0007ms, 1407ms total)
T1510 001:742 JLINK_ReadReg(R15)  returns 0x20000000 (0000ms, 1407ms total)
T1510 001:742 JLINK_ClrBPEx(BPHandle = 0x00000006)  returns 0x00 (0000ms, 1407ms total)
T1510 001:742 JLINK_ReadReg(R0)  returns 0x00000000 (0000ms, 1407ms total)
T1510 001:742 JLINK_WriteMem(0x20000164, 0x0400 Bytes, ...) -- Data:  66 B9 4F F0 00 08 27 23 79 4A 7A A1 7D A0 0A F0 ... -- CPU_WriteMem(1024 bytes @ 0x20000164)  returns 0x400 (0008ms, 1407ms total)
T1510 001:750 JLINK_WriteReg(R0, 0x08000800)  returns 0x00 (0000ms, 1415ms total)
T1510 001:750 JLINK_WriteReg(R1, 0x00000400)  returns 0x00 (0000ms, 1415ms total)
T1510 001:750 JLINK_WriteReg(R2, 0x20000164)  returns 0x00 (0000ms, 1415ms total)
T1510 001:750 JLINK_WriteReg(R3, 0x00000000)  returns 0x00 (0000ms, 1415ms total)
T1510 001:750 JLINK_WriteReg(R4, 0x00000000)  returns 0x00 (0000ms, 1415ms total)
T1510 001:750 JLINK_WriteReg(R5, 0x00000000)  returns 0x00 (0000ms, 1415ms total)
T1510 001:750 JLINK_WriteReg(R6, 0x00000000)  returns 0x00 (0000ms, 1415ms total)
T1510 001:750 JLINK_WriteReg(R7, 0x00000000)  returns 0x00 (0000ms, 1415ms total)
T1510 001:750 JLINK_WriteReg(R8, 0x00000000)  returns 0x00 (0000ms, 1415ms total)
T1510 001:750 JLINK_WriteReg(R9, 0x20000160)  returns 0x00 (0000ms, 1415ms total)
T1510 001:750 JLINK_WriteReg(R10, 0x00000000)  returns 0x00 (0000ms, 1415ms total)
T1510 001:750 JLINK_WriteReg(R11, 0x00000000)  returns 0x00 (0000ms, 1415ms total)
T1510 001:750 JLINK_WriteReg(R12, 0x00000000)  returns 0x00 (0000ms, 1415ms total)
T1510 001:750 JLINK_WriteReg(R13, 0x20000800)  returns 0x00 (0000ms, 1415ms total)
T1510 001:750 JLINK_WriteReg(R14, 0x20000001)  returns 0x00 (0000ms, 1415ms total)
T1510 001:750 JLINK_WriteReg(R15, 0x200000F4)  returns 0x00 (0000ms, 1415ms total)
T1510 001:750 JLINK_WriteReg(XPSR, 0x01000000)  returns 0x00 (0000ms, 1415ms total)
T1510 001:750 JLINK_WriteReg(MSP, 0x20000800)  returns 0x00 (0000ms, 1415ms total)
T1510 001:750 JLINK_WriteReg(PSP, 0x20000800)  returns 0x00 (0000ms, 1415ms total)
T1510 001:750 JLINK_WriteReg(CFBP, 0x00000000)  returns 0x00 (0000ms, 1415ms total)
T1510 001:750 JLINK_SetBPEx(Addr = 0x20000000, Type = 0xFFFFFFF2)  returns 0x00000007 (0000ms, 1415ms total)
T1510 001:750 JLINK_Go() -- CPU_WriteMem(4 bytes @ 0xE0002008) -- CPU_WriteMem(4 bytes @ 0xE000200C) -- CPU_WriteMem(4 bytes @ 0xE0002010) -- CPU_WriteMem(4 bytes @ 0xE0002014) -- CPU_WriteMem(4 bytes @ 0xE0002018) -- CPU_WriteMem(4 bytes @ 0xE000201C) (0008ms, 1415ms total)
T1510 001:758 JLINK_IsHalted()  returns FALSE (0001ms, 1423ms total)
T1510 001:809 JLINK_IsHalted() -- CPU_ReadMem(2 bytes @ 0x20000000)  returns TRUE (0007ms, 1423ms total)
T1510 001:816 JLINK_ReadReg(R15)  returns 0x20000000 (0000ms, 1423ms total)
T1510 001:816 JLINK_ClrBPEx(BPHandle = 0x00000007)  returns 0x00 (0000ms, 1423ms total)
T1510 001:816 JLINK_ReadReg(R0)  returns 0x00000000 (0000ms, 1423ms total)
T1510 001:816 JLINK_WriteMem(0x20000164, 0x0400 Bytes, ...) -- Data:  2D E9 F0 5F 80 46 91 46 1F 46 4F F0 00 0A 4E 46 ... -- CPU_WriteMem(1024 bytes @ 0x20000164)  returns 0x400 (0007ms, 1423ms total)
T1510 001:823 JLINK_WriteReg(R0, 0x08000C00)  returns 0x00 (0000ms, 1430ms total)
T1510 001:823 JLINK_WriteReg(R1, 0x00000400)  returns 0x00 (0000ms, 1430ms total)
T1510 001:823 JLINK_WriteReg(R2, 0x20000164)  returns 0x00 (0000ms, 1430ms total)
T1510 001:823 JLINK_WriteReg(R3, 0x00000000)  returns 0x00 (0000ms, 1430ms total)
T1510 001:824 JLINK_WriteReg(R4, 0x00000000)  returns 0x00 (0000ms, 1431ms total)
T1510 001:824 JLINK_WriteReg(R5, 0x00000000)  returns 0x00 (0000ms, 1431ms total)
T1510 001:824 JLINK_WriteReg(R6, 0x00000000)  returns 0x00 (0000ms, 1431ms total)
T1510 001:824 JLINK_WriteReg(R7, 0x00000000)  returns 0x00 (0000ms, 1431ms total)
T1510 001:824 JLINK_WriteReg(R8, 0x00000000)  returns 0x00 (0000ms, 1431ms total)
T1510 001:824 JLINK_WriteReg(R9, 0x20000160)  returns 0x00 (0000ms, 1431ms total)
T1510 001:824 JLINK_WriteReg(R10, 0x00000000)  returns 0x00 (0000ms, 1431ms total)
T1510 001:824 JLINK_WriteReg(R11, 0x00000000)  returns 0x00 (0000ms, 1431ms total)
T1510 001:824 JLINK_WriteReg(R12, 0x00000000)  returns 0x00 (0000ms, 1431ms total)
T1510 001:824 JLINK_WriteReg(R13, 0x20000800)  returns 0x00 (0000ms, 1431ms total)
T1510 001:824 JLINK_WriteReg(R14, 0x20000001)  returns 0x00 (0000ms, 1431ms total)
T1510 001:824 JLINK_WriteReg(R15, 0x200000F4)  returns 0x00 (0000ms, 1431ms total)
T1510 001:824 JLINK_WriteReg(XPSR, 0x01000000)  returns 0x00 (0000ms, 1431ms total)
T1510 001:824 JLINK_WriteReg(MSP, 0x20000800)  returns 0x00 (0000ms, 1431ms total)
T1510 001:824 JLINK_WriteReg(PSP, 0x20000800)  returns 0x00 (0000ms, 1431ms total)
T1510 001:824 JLINK_WriteReg(CFBP, 0x00000000)  returns 0x00 (0000ms, 1431ms total)
T1510 001:824 JLINK_SetBPEx(Addr = 0x20000000, Type = 0xFFFFFFF2)  returns 0x00000008 (0000ms, 1431ms total)
T1510 001:824 JLINK_Go() -- CPU_WriteMem(4 bytes @ 0xE0002008) -- CPU_WriteMem(4 bytes @ 0xE000200C) -- CPU_WriteMem(4 bytes @ 0xE0002010) -- CPU_WriteMem(4 bytes @ 0xE0002014) -- CPU_WriteMem(4 bytes @ 0xE0002018) -- CPU_WriteMem(4 bytes @ 0xE000201C) (0009ms, 1431ms total)
T1510 001:833 JLINK_IsHalted()  returns FALSE (0001ms, 1440ms total)
T1510 001:884 JLINK_IsHalted() -- CPU_ReadMem(2 bytes @ 0x20000000)  returns TRUE (0006ms, 1440ms total)
T1510 001:890 JLINK_ReadReg(R15)  returns 0x20000000 (0000ms, 1440ms total)
T1510 001:890 JLINK_ClrBPEx(BPHandle = 0x00000008)  returns 0x00 (0000ms, 1440ms total)
T1510 001:890 JLINK_ReadReg(R0)  returns 0x00000000 (0000ms, 1440ms total)
T1510 001:891 JLINK_WriteMem(0x20000164, 0x0400 Bytes, ...) -- Data:  0A F0 35 F9 00 BF 00 2F FD D0 00 BF 28 6A 18 B1 ... -- CPU_WriteMem(1024 bytes @ 0x20000164)  returns 0x400 (0007ms, 1440ms total)
T1510 001:898 JLINK_WriteReg(R0, 0x08001000)  returns 0x00 (0000ms, 1447ms total)
T1510 001:898 JLINK_WriteReg(R1, 0x00000400)  returns 0x00 (0000ms, 1447ms total)
T1510 001:898 JLINK_WriteReg(R2, 0x20000164)  returns 0x00 (0000ms, 1447ms total)
T1510 001:898 JLINK_WriteReg(R3, 0x00000000)  returns 0x00 (0000ms, 1447ms total)
T1510 001:898 JLINK_WriteReg(R4, 0x00000000)  returns 0x00 (0000ms, 1447ms total)
T1510 001:898 JLINK_WriteReg(R5, 0x00000000)  returns 0x00 (0000ms, 1447ms total)
T1510 001:898 JLINK_WriteReg(R6, 0x00000000)  returns 0x00 (0000ms, 1447ms total)
T1510 001:898 JLINK_WriteReg(R7, 0x00000000)  returns 0x00 (0000ms, 1447ms total)
T1510 001:898 JLINK_WriteReg(R8, 0x00000000)  returns 0x00 (0000ms, 1447ms total)
T1510 001:898 JLINK_WriteReg(R9, 0x20000160)  returns 0x00 (0000ms, 1447ms total)
T1510 001:898 JLINK_WriteReg(R10, 0x00000000)  returns 0x00 (0000ms, 1447ms total)
T1510 001:898 JLINK_WriteReg(R11, 0x00000000)  returns 0x00 (0000ms, 1447ms total)
T1510 001:898 JLINK_WriteReg(R12, 0x00000000)  returns 0x00 (0000ms, 1447ms total)
T1510 001:898 JLINK_WriteReg(R13, 0x20000800)  returns 0x00 (0000ms, 1447ms total)
T1510 001:898 JLINK_WriteReg(R14, 0x20000001)  returns 0x00 (0000ms, 1447ms total)
T1510 001:898 JLINK_WriteReg(R15, 0x200000F4)  returns 0x00 (0000ms, 1447ms total)
T1510 001:898 JLINK_WriteReg(XPSR, 0x01000000)  returns 0x00 (0000ms, 1447ms total)
T1510 001:898 JLINK_WriteReg(MSP, 0x20000800)  returns 0x00 (0000ms, 1447ms total)
T1510 001:898 JLINK_WriteReg(PSP, 0x20000800)  returns 0x00 (0000ms, 1447ms total)
T1510 001:898 JLINK_WriteReg(CFBP, 0x00000000)  returns 0x00 (0000ms, 1447ms total)
T1510 001:898 JLINK_SetBPEx(Addr = 0x20000000, Type = 0xFFFFFFF2)  returns 0x00000009 (0000ms, 1447ms total)
T1510 001:898 JLINK_Go() -- CPU_WriteMem(4 bytes @ 0xE0002008) -- CPU_WriteMem(4 bytes @ 0xE000200C) -- CPU_WriteMem(4 bytes @ 0xE0002010) -- CPU_WriteMem(4 bytes @ 0xE0002014) -- CPU_WriteMem(4 bytes @ 0xE0002018) -- CPU_WriteMem(4 bytes @ 0xE000201C) (0009ms, 1447ms total)
T1510 001:907 JLINK_IsHalted()  returns FALSE (0001ms, 1456ms total)
T1510 001:958 JLINK_IsHalted() -- CPU_ReadMem(2 bytes @ 0x20000000)  returns TRUE (0007ms, 1456ms total)
T1510 001:965 JLINK_ReadReg(R15)  returns 0x20000000 (0000ms, 1456ms total)
T1510 001:965 JLINK_ClrBPEx(BPHandle = 0x00000009)  returns 0x00 (0000ms, 1456ms total)
T1510 001:965 JLINK_ReadReg(R0)  returns 0x00000000 (0000ms, 1456ms total)
T1510 001:966 JLINK_WriteMem(0x20000164, 0x0400 Bytes, ...) -- Data:  EA D1 00 BF 6F 49 09 68 C8 69 08 F0 03 F9 6D 49 ... -- CPU_WriteMem(1024 bytes @ 0x20000164)  returns 0x400 (0007ms, 1456ms total)
T1510 001:973 JLINK_WriteReg(R0, 0x08001400)  returns 0x00 (0000ms, 1463ms total)
T1510 001:973 JLINK_WriteReg(R1, 0x00000400)  returns 0x00 (0000ms, 1463ms total)
T1510 001:973 JLINK_WriteReg(R2, 0x20000164)  returns 0x00 (0000ms, 1463ms total)
T1510 001:973 JLINK_WriteReg(R3, 0x00000000)  returns 0x00 (0000ms, 1463ms total)
T1510 001:973 JLINK_WriteReg(R4, 0x00000000)  returns 0x00 (0000ms, 1463ms total)
T1510 001:973 JLINK_WriteReg(R5, 0x00000000)  returns 0x00 (0000ms, 1463ms total)
T1510 001:973 JLINK_WriteReg(R6, 0x00000000)  returns 0x00 (0000ms, 1463ms total)
T1510 001:973 JLINK_WriteReg(R7, 0x00000000)  returns 0x00 (0000ms, 1463ms total)
T1510 001:973 JLINK_WriteReg(R8, 0x00000000)  returns 0x00 (0000ms, 1463ms total)
T1510 001:973 JLINK_WriteReg(R9, 0x20000160)  returns 0x00 (0000ms, 1463ms total)
T1510 001:973 JLINK_WriteReg(R10, 0x00000000)  returns 0x00 (0000ms, 1463ms total)
T1510 001:973 JLINK_WriteReg(R11, 0x00000000)  returns 0x00 (0000ms, 1463ms total)
T1510 001:973 JLINK_WriteReg(R12, 0x00000000)  returns 0x00 (0000ms, 1463ms total)
T1510 001:973 JLINK_WriteReg(R13, 0x20000800)  returns 0x00 (0000ms, 1463ms total)
T1510 001:973 JLINK_WriteReg(R14, 0x20000001)  returns 0x00 (0000ms, 1463ms total)
T1510 001:973 JLINK_WriteReg(R15, 0x200000F4)  returns 0x00 (0000ms, 1463ms total)
T1510 001:973 JLINK_WriteReg(XPSR, 0x01000000)  returns 0x00 (0000ms, 1463ms total)
T1510 001:973 JLINK_WriteReg(MSP, 0x20000800)  returns 0x00 (0000ms, 1463ms total)
T1510 001:973 JLINK_WriteReg(PSP, 0x20000800)  returns 0x00 (0000ms, 1463ms total)
T1510 001:973 JLINK_WriteReg(CFBP, 0x00000000)  returns 0x00 (0000ms, 1463ms total)
T1510 001:973 JLINK_SetBPEx(Addr = 0x20000000, Type = 0xFFFFFFF2)  returns 0x0000000A (0000ms, 1463ms total)
T1510 001:973 JLINK_Go() -- CPU_WriteMem(4 bytes @ 0xE0002008) -- CPU_WriteMem(4 bytes @ 0xE000200C) -- CPU_WriteMem(4 bytes @ 0xE0002010) -- CPU_WriteMem(4 bytes @ 0xE0002014) -- CPU_WriteMem(4 bytes @ 0xE0002018) -- CPU_WriteMem(4 bytes @ 0xE000201C) (0009ms, 1463ms total)
T1510 001:982 JLINK_IsHalted()  returns FALSE (0001ms, 1472ms total)
T1510 002:033 JLINK_IsHalted() -- CPU_ReadMem(2 bytes @ 0x20000000)  returns TRUE (0007ms, 1472ms total)
T1510 002:040 JLINK_ReadReg(R15)  returns 0x20000000 (0000ms, 1472ms total)
T1510 002:040 JLINK_ClrBPEx(BPHandle = 0x0000000A)  returns 0x00 (0000ms, 1472ms total)
T1510 002:040 JLINK_ReadReg(R0)  returns 0x00000000 (0000ms, 1472ms total)
T1510 002:041 JLINK_WriteMem(0x20000164, 0x0400 Bytes, ...) -- Data:  07 F0 20 FE 22 49 09 68 88 61 4F F4 80 50 09 F0 ... -- CPU_WriteMem(1024 bytes @ 0x20000164)  returns 0x400 (0007ms, 1472ms total)
T1510 002:048 JLINK_WriteReg(R0, 0x08001800)  returns 0x00 (0000ms, 1479ms total)
T1510 002:048 JLINK_WriteReg(R1, 0x00000400)  returns 0x00 (0000ms, 1479ms total)
T1510 002:048 JLINK_WriteReg(R2, 0x20000164)  returns 0x00 (0000ms, 1479ms total)
T1510 002:048 JLINK_WriteReg(R3, 0x00000000)  returns 0x00 (0000ms, 1479ms total)
T1510 002:048 JLINK_WriteReg(R4, 0x00000000)  returns 0x00 (0000ms, 1479ms total)
T1510 002:048 JLINK_WriteReg(R5, 0x00000000)  returns 0x00 (0000ms, 1479ms total)
T1510 002:048 JLINK_WriteReg(R6, 0x00000000)  returns 0x00 (0000ms, 1479ms total)
T1510 002:048 JLINK_WriteReg(R7, 0x00000000)  returns 0x00 (0000ms, 1479ms total)
T1510 002:048 JLINK_WriteReg(R8, 0x00000000)  returns 0x00 (0000ms, 1479ms total)
T1510 002:048 JLINK_WriteReg(R9, 0x20000160)  returns 0x00 (0000ms, 1479ms total)
T1510 002:048 JLINK_WriteReg(R10, 0x00000000)  returns 0x00 (0000ms, 1479ms total)
T1510 002:048 JLINK_WriteReg(R11, 0x00000000)  returns 0x00 (0000ms, 1479ms total)
T1510 002:048 JLINK_WriteReg(R12, 0x00000000)  returns 0x00 (0000ms, 1479ms total)
T1510 002:048 JLINK_WriteReg(R13, 0x20000800)  returns 0x00 (0000ms, 1479ms total)
T1510 002:048 JLINK_WriteReg(R14, 0x20000001)  returns 0x00 (0000ms, 1479ms total)
T1510 002:048 JLINK_WriteReg(R15, 0x200000F4)  returns 0x00 (0000ms, 1479ms total)
T1510 002:048 JLINK_WriteReg(XPSR, 0x01000000)  returns 0x00 (0000ms, 1479ms total)
T1510 002:048 JLINK_WriteReg(MSP, 0x20000800)  returns 0x00 (0000ms, 1479ms total)
T1510 002:048 JLINK_WriteReg(PSP, 0x20000800)  returns 0x00 (0000ms, 1479ms total)
T1510 002:048 JLINK_WriteReg(CFBP, 0x00000000)  returns 0x00 (0000ms, 1479ms total)
T1510 002:048 JLINK_SetBPEx(Addr = 0x20000000, Type = 0xFFFFFFF2)  returns 0x0000000B (0000ms, 1479ms total)
T1510 002:048 JLINK_Go() -- CPU_WriteMem(4 bytes @ 0xE0002008) -- CPU_WriteMem(4 bytes @ 0xE000200C) -- CPU_WriteMem(4 bytes @ 0xE0002010) -- CPU_WriteMem(4 bytes @ 0xE0002014) -- CPU_WriteMem(4 bytes @ 0xE0002018) -- CPU_WriteMem(4 bytes @ 0xE000201C) (0009ms, 1479ms total)
T1510 002:057 JLINK_IsHalted()  returns FALSE (0001ms, 1488ms total)
T1510 002:114 JLINK_IsHalted() -- CPU_ReadMem(2 bytes @ 0x20000000)  returns TRUE (0007ms, 1488ms total)
T1510 002:121 JLINK_ReadReg(R15)  returns 0x20000000 (0000ms, 1488ms total)
T1510 002:121 JLINK_ClrBPEx(BPHandle = 0x0000000B)  returns 0x00 (0000ms, 1488ms total)
T1510 002:121 JLINK_ReadReg(R0)  returns 0x00000000 (0000ms, 1488ms total)
T1510 002:124 JLINK_WriteMem(0x20000164, 0x0400 Bytes, ...) -- Data:  C8 6C 69 46 00 F0 2E FA 01 20 8D F8 00 00 00 20 ... -- CPU_WriteMem(1024 bytes @ 0x20000164)  returns 0x400 (0007ms, 1488ms total)
T1510 002:131 JLINK_WriteReg(R0, 0x08001C00)  returns 0x00 (0000ms, 1495ms total)
T1510 002:131 JLINK_WriteReg(R1, 0x00000400)  returns 0x00 (0000ms, 1495ms total)
T1510 002:131 JLINK_WriteReg(R2, 0x20000164)  returns 0x00 (0000ms, 1495ms total)
T1510 002:131 JLINK_WriteReg(R3, 0x00000000)  returns 0x00 (0000ms, 1495ms total)
T1510 002:131 JLINK_WriteReg(R4, 0x00000000)  returns 0x00 (0000ms, 1495ms total)
T1510 002:131 JLINK_WriteReg(R5, 0x00000000)  returns 0x00 (0000ms, 1495ms total)
T1510 002:131 JLINK_WriteReg(R6, 0x00000000)  returns 0x00 (0000ms, 1495ms total)
T1510 002:131 JLINK_WriteReg(R7, 0x00000000)  returns 0x00 (0000ms, 1495ms total)
T1510 002:131 JLINK_WriteReg(R8, 0x00000000)  returns 0x00 (0000ms, 1495ms total)
T1510 002:131 JLINK_WriteReg(R9, 0x20000160)  returns 0x00 (0000ms, 1495ms total)
T1510 002:131 JLINK_WriteReg(R10, 0x00000000)  returns 0x00 (0000ms, 1495ms total)
T1510 002:131 JLINK_WriteReg(R11, 0x00000000)  returns 0x00 (0000ms, 1495ms total)
T1510 002:131 JLINK_WriteReg(R12, 0x00000000)  returns 0x00 (0000ms, 1495ms total)
T1510 002:131 JLINK_WriteReg(R13, 0x20000800)  returns 0x00 (0000ms, 1495ms total)
T1510 002:131 JLINK_WriteReg(R14, 0x20000001)  returns 0x00 (0000ms, 1495ms total)
T1510 002:131 JLINK_WriteReg(R15, 0x200000F4)  returns 0x00 (0000ms, 1495ms total)
T1510 002:131 JLINK_WriteReg(XPSR, 0x01000000)  returns 0x00 (0000ms, 1495ms total)
T1510 002:131 JLINK_WriteReg(MSP, 0x20000800)  returns 0x00 (0000ms, 1495ms total)
T1510 002:131 JLINK_WriteReg(PSP, 0x20000800)  returns 0x00 (0000ms, 1495ms total)
T1510 002:131 JLINK_WriteReg(CFBP, 0x00000000)  returns 0x00 (0000ms, 1495ms total)
T1510 002:131 JLINK_SetBPEx(Addr = 0x20000000, Type = 0xFFFFFFF2)  returns 0x0000000C (0000ms, 1495ms total)
T1510 002:131 JLINK_Go() -- CPU_WriteMem(4 bytes @ 0xE0002008) -- CPU_WriteMem(4 bytes @ 0xE000200C) -- CPU_WriteMem(4 bytes @ 0xE0002010) -- CPU_WriteMem(4 bytes @ 0xE0002014) -- CPU_WriteMem(4 bytes @ 0xE0002018) -- CPU_WriteMem(4 bytes @ 0xE000201C) (0009ms, 1495ms total)
T1510 002:140 JLINK_IsHalted()  returns FALSE (0001ms, 1504ms total)
T1510 002:191 JLINK_IsHalted() -- CPU_ReadMem(2 bytes @ 0x20000000)  returns TRUE (0007ms, 1504ms total)
T1510 002:199 JLINK_ReadReg(R15)  returns 0x20000000 (0000ms, 1504ms total)
T1510 002:199 JLINK_ClrBPEx(BPHandle = 0x0000000C)  returns 0x00 (0000ms, 1504ms total)
T1510 002:199 JLINK_ReadReg(R0)  returns 0x00000000 (0000ms, 1504ms total)
T1510 002:200 JLINK_WriteMem(0x20000164, 0x0400 Bytes, ...) -- Data:  57 32 35 51 31 36 43 56 20 64 65 74 65 63 74 69 ... -- CPU_WriteMem(1024 bytes @ 0x20000164)  returns 0x400 (0007ms, 1504ms total)
T1510 002:207 JLINK_WriteReg(R0, 0x08002000)  returns 0x00 (0000ms, 1511ms total)
T1510 002:207 JLINK_WriteReg(R1, 0x00000400)  returns 0x00 (0000ms, 1511ms total)
T1510 002:207 JLINK_WriteReg(R2, 0x20000164)  returns 0x00 (0000ms, 1511ms total)
T1510 002:207 JLINK_WriteReg(R3, 0x00000000)  returns 0x00 (0000ms, 1511ms total)
T1510 002:207 JLINK_WriteReg(R4, 0x00000000)  returns 0x00 (0000ms, 1511ms total)
T1510 002:207 JLINK_WriteReg(R5, 0x00000000)  returns 0x00 (0000ms, 1511ms total)
T1510 002:207 JLINK_WriteReg(R6, 0x00000000)  returns 0x00 (0000ms, 1511ms total)
T1510 002:207 JLINK_WriteReg(R7, 0x00000000)  returns 0x00 (0000ms, 1511ms total)
T1510 002:207 JLINK_WriteReg(R8, 0x00000000)  returns 0x00 (0000ms, 1511ms total)
T1510 002:207 JLINK_WriteReg(R9, 0x20000160)  returns 0x00 (0000ms, 1511ms total)
T1510 002:207 JLINK_WriteReg(R10, 0x00000000)  returns 0x00 (0000ms, 1511ms total)
T1510 002:207 JLINK_WriteReg(R11, 0x00000000)  returns 0x00 (0000ms, 1511ms total)
T1510 002:207 JLINK_WriteReg(R12, 0x00000000)  returns 0x00 (0000ms, 1511ms total)
T1510 002:207 JLINK_WriteReg(R13, 0x20000800)  returns 0x00 (0000ms, 1511ms total)
T1510 002:207 JLINK_WriteReg(R14, 0x20000001)  returns 0x00 (0000ms, 1511ms total)
T1510 002:207 JLINK_WriteReg(R15, 0x200000F4)  returns 0x00 (0000ms, 1511ms total)
T1510 002:207 JLINK_WriteReg(XPSR, 0x01000000)  returns 0x00 (0000ms, 1511ms total)
T1510 002:207 JLINK_WriteReg(MSP, 0x20000800)  returns 0x00 (0000ms, 1511ms total)
T1510 002:207 JLINK_WriteReg(PSP, 0x20000800)  returns 0x00 (0000ms, 1511ms total)
T1510 002:207 JLINK_WriteReg(CFBP, 0x00000000)  returns 0x00 (0000ms, 1511ms total)
T1510 002:207 JLINK_SetBPEx(Addr = 0x20000000, Type = 0xFFFFFFF2)  returns 0x0000000D (0000ms, 1511ms total)
T1510 002:207 JLINK_Go() -- CPU_WriteMem(4 bytes @ 0xE0002008) -- CPU_WriteMem(4 bytes @ 0xE000200C) -- CPU_WriteMem(4 bytes @ 0xE0002010) -- CPU_WriteMem(4 bytes @ 0xE0002014) -- CPU_WriteMem(4 bytes @ 0xE0002018) -- CPU_WriteMem(4 bytes @ 0xE000201C) (0009ms, 1511ms total)
T1510 002:216 JLINK_IsHalted()  returns FALSE (0001ms, 1520ms total)
T1510 002:267 JLINK_IsHalted() -- CPU_ReadMem(2 bytes @ 0x20000000)  returns TRUE (0007ms, 1520ms total)
T1510 002:274 JLINK_ReadReg(R15)  returns 0x20000000 (0000ms, 1520ms total)
T1510 002:274 JLINK_ClrBPEx(BPHandle = 0x0000000D)  returns 0x00 (0000ms, 1520ms total)
T1510 002:274 JLINK_ReadReg(R0)  returns 0x00000000 (0000ms, 1520ms total)
T1510 002:275 JLINK_WriteMem(0x20000164, 0x0400 Bytes, ...) -- Data:  14 00 00 20 00 08 01 40 73 70 69 31 00 00 00 00 ... -- CPU_WriteMem(1024 bytes @ 0x20000164)  returns 0x400 (0007ms, 1520ms total)
T1510 002:282 JLINK_WriteReg(R0, 0x08002400)  returns 0x00 (0000ms, 1527ms total)
T1510 002:282 JLINK_WriteReg(R1, 0x00000400)  returns 0x00 (0000ms, 1527ms total)
T1510 002:282 JLINK_WriteReg(R2, 0x20000164)  returns 0x00 (0000ms, 1527ms total)
T1510 002:282 JLINK_WriteReg(R3, 0x00000000)  returns 0x00 (0000ms, 1527ms total)
T1510 002:282 JLINK_WriteReg(R4, 0x00000000)  returns 0x00 (0000ms, 1527ms total)
T1510 002:282 JLINK_WriteReg(R5, 0x00000000)  returns 0x00 (0000ms, 1527ms total)
T1510 002:282 JLINK_WriteReg(R6, 0x00000000)  returns 0x00 (0000ms, 1527ms total)
T1510 002:282 JLINK_WriteReg(R7, 0x00000000)  returns 0x00 (0000ms, 1527ms total)
T1510 002:282 JLINK_WriteReg(R8, 0x00000000)  returns 0x00 (0000ms, 1527ms total)
T1510 002:282 JLINK_WriteReg(R9, 0x20000160)  returns 0x00 (0000ms, 1527ms total)
T1510 002:282 JLINK_WriteReg(R10, 0x00000000)  returns 0x00 (0000ms, 1527ms total)
T1510 002:282 JLINK_WriteReg(R11, 0x00000000)  returns 0x00 (0000ms, 1527ms total)
T1510 002:282 JLINK_WriteReg(R12, 0x00000000)  returns 0x00 (0000ms, 1527ms total)
T1510 002:282 JLINK_WriteReg(R13, 0x20000800)  returns 0x00 (0000ms, 1527ms total)
T1510 002:282 JLINK_WriteReg(R14, 0x20000001)  returns 0x00 (0000ms, 1527ms total)
T1510 002:282 JLINK_WriteReg(R15, 0x200000F4)  returns 0x00 (0000ms, 1527ms total)
T1510 002:282 JLINK_WriteReg(XPSR, 0x01000000)  returns 0x00 (0000ms, 1527ms total)
T1510 002:282 JLINK_WriteReg(MSP, 0x20000800)  returns 0x00 (0000ms, 1527ms total)
T1510 002:282 JLINK_WriteReg(PSP, 0x20000800)  returns 0x00 (0000ms, 1527ms total)
T1510 002:282 JLINK_WriteReg(CFBP, 0x00000000)  returns 0x00 (0000ms, 1527ms total)
T1510 002:282 JLINK_SetBPEx(Addr = 0x20000000, Type = 0xFFFFFFF2)  returns 0x0000000E (0000ms, 1527ms total)
T1510 002:282 JLINK_Go() -- CPU_WriteMem(4 bytes @ 0xE0002008) -- CPU_WriteMem(4 bytes @ 0xE000200C) -- CPU_WriteMem(4 bytes @ 0xE0002010) -- CPU_WriteMem(4 bytes @ 0xE0002014) -- CPU_WriteMem(4 bytes @ 0xE0002018) -- CPU_WriteMem(4 bytes @ 0xE000201C) (0009ms, 1527ms total)
T1510 002:291 JLINK_IsHalted()  returns FALSE (0001ms, 1536ms total)
T1510 002:342 JLINK_IsHalted() -- CPU_ReadMem(2 bytes @ 0x20000000)  returns TRUE (0007ms, 1536ms total)
T1510 002:349 JLINK_ReadReg(R15)  returns 0x20000000 (0000ms, 1536ms total)
T1510 002:349 JLINK_ClrBPEx(BPHandle = 0x0000000E)  returns 0x00 (0000ms, 1536ms total)
T1510 002:349 JLINK_ReadReg(R0)  returns 0x00000000 (0000ms, 1536ms total)
T1510 002:350 JLINK_WriteMem(0x20000164, 0x0400 Bytes, ...) -- Data:  80 00 04 F0 C1 FD 40 B1 4F F4 80 00 04 F0 0F FE ... -- CPU_WriteMem(1024 bytes @ 0x20000164)  returns 0x400 (0007ms, 1536ms total)
T1510 002:357 JLINK_WriteReg(R0, 0x08002800)  returns 0x00 (0000ms, 1543ms total)
T1510 002:357 JLINK_WriteReg(R1, 0x00000400)  returns 0x00 (0000ms, 1543ms total)
T1510 002:357 JLINK_WriteReg(R2, 0x20000164)  returns 0x00 (0000ms, 1543ms total)
T1510 002:357 JLINK_WriteReg(R3, 0x00000000)  returns 0x00 (0000ms, 1543ms total)
T1510 002:357 JLINK_WriteReg(R4, 0x00000000)  returns 0x00 (0000ms, 1543ms total)
T1510 002:357 JLINK_WriteReg(R5, 0x00000000)  returns 0x00 (0000ms, 1543ms total)
T1510 002:357 JLINK_WriteReg(R6, 0x00000000)  returns 0x00 (0000ms, 1543ms total)
T1510 002:357 JLINK_WriteReg(R7, 0x00000000)  returns 0x00 (0000ms, 1543ms total)
T1510 002:357 JLINK_WriteReg(R8, 0x00000000)  returns 0x00 (0000ms, 1543ms total)
T1510 002:357 JLINK_WriteReg(R9, 0x20000160)  returns 0x00 (0000ms, 1543ms total)
T1510 002:357 JLINK_WriteReg(R10, 0x00000000)  returns 0x00 (0000ms, 1543ms total)
T1510 002:357 JLINK_WriteReg(R11, 0x00000000)  returns 0x00 (0000ms, 1543ms total)
T1510 002:357 JLINK_WriteReg(R12, 0x00000000)  returns 0x00 (0000ms, 1543ms total)
T1510 002:357 JLINK_WriteReg(R13, 0x20000800)  returns 0x00 (0000ms, 1543ms total)
T1510 002:357 JLINK_WriteReg(R14, 0x20000001)  returns 0x00 (0000ms, 1543ms total)
T1510 002:357 JLINK_WriteReg(R15, 0x200000F4)  returns 0x00 (0000ms, 1543ms total)
T1510 002:357 JLINK_WriteReg(XPSR, 0x01000000)  returns 0x00 (0000ms, 1543ms total)
T1510 002:357 JLINK_WriteReg(MSP, 0x20000800)  returns 0x00 (0000ms, 1543ms total)
T1510 002:357 JLINK_WriteReg(PSP, 0x20000800)  returns 0x00 (0000ms, 1543ms total)
T1510 002:357 JLINK_WriteReg(CFBP, 0x00000000)  returns 0x00 (0000ms, 1543ms total)
T1510 002:357 JLINK_SetBPEx(Addr = 0x20000000, Type = 0xFFFFFFF2)  returns 0x0000000F (0000ms, 1543ms total)
T1510 002:357 JLINK_Go() -- CPU_WriteMem(4 bytes @ 0xE0002008) -- CPU_WriteMem(4 bytes @ 0xE000200C) -- CPU_WriteMem(4 bytes @ 0xE0002010) -- CPU_WriteMem(4 bytes @ 0xE0002014) -- CPU_WriteMem(4 bytes @ 0xE0002018) -- CPU_WriteMem(4 bytes @ 0xE000201C) (0008ms, 1543ms total)
T1510 002:365 JLINK_IsHalted()  returns FALSE (0001ms, 1551ms total)
T1510 002:416 JLINK_IsHalted() -- CPU_ReadMem(2 bytes @ 0x20000000)  returns TRUE (0007ms, 1551ms total)
T1510 002:423 JLINK_ReadReg(R15)  returns 0x20000000 (0000ms, 1551ms total)
T1510 002:423 JLINK_ClrBPEx(BPHandle = 0x0000000F)  returns 0x00 (0000ms, 1551ms total)
T1510 002:423 JLINK_ReadReg(R0)  returns 0x00000000 (0000ms, 1551ms total)
T1510 002:424 JLINK_WriteMem(0x20000164, 0x0400 Bytes, ...) -- Data:  00 F0 CF FB C2 49 91 F8 71 00 00 F0 CF FB 00 21 ... -- CPU_WriteMem(1024 bytes @ 0x20000164)  returns 0x400 (0007ms, 1551ms total)
T1510 002:431 JLINK_WriteReg(R0, 0x08002C00)  returns 0x00 (0000ms, 1558ms total)
T1510 002:431 JLINK_WriteReg(R1, 0x00000400)  returns 0x00 (0000ms, 1558ms total)
T1510 002:431 JLINK_WriteReg(R2, 0x20000164)  returns 0x00 (0000ms, 1558ms total)
T1510 002:431 JLINK_WriteReg(R3, 0x00000000)  returns 0x00 (0000ms, 1558ms total)
T1510 002:431 JLINK_WriteReg(R4, 0x00000000)  returns 0x00 (0000ms, 1558ms total)
T1510 002:431 JLINK_WriteReg(R5, 0x00000000)  returns 0x00 (0000ms, 1558ms total)
T1510 002:431 JLINK_WriteReg(R6, 0x00000000)  returns 0x00 (0000ms, 1558ms total)
T1510 002:431 JLINK_WriteReg(R7, 0x00000000)  returns 0x00 (0000ms, 1558ms total)
T1510 002:431 JLINK_WriteReg(R8, 0x00000000)  returns 0x00 (0000ms, 1558ms total)
T1510 002:431 JLINK_WriteReg(R9, 0x20000160)  returns 0x00 (0000ms, 1558ms total)
T1510 002:431 JLINK_WriteReg(R10, 0x00000000)  returns 0x00 (0000ms, 1558ms total)
T1510 002:431 JLINK_WriteReg(R11, 0x00000000)  returns 0x00 (0000ms, 1558ms total)
T1510 002:431 JLINK_WriteReg(R12, 0x00000000)  returns 0x00 (0000ms, 1558ms total)
T1510 002:431 JLINK_WriteReg(R13, 0x20000800)  returns 0x00 (0000ms, 1558ms total)
T1510 002:431 JLINK_WriteReg(R14, 0x20000001)  returns 0x00 (0000ms, 1558ms total)
T1510 002:431 JLINK_WriteReg(R15, 0x200000F4)  returns 0x00 (0000ms, 1558ms total)
T1510 002:431 JLINK_WriteReg(XPSR, 0x01000000)  returns 0x00 (0000ms, 1558ms total)
T1510 002:431 JLINK_WriteReg(MSP, 0x20000800)  returns 0x00 (0000ms, 1558ms total)
T1510 002:431 JLINK_WriteReg(PSP, 0x20000800)  returns 0x00 (0000ms, 1558ms total)
T1510 002:431 JLINK_WriteReg(CFBP, 0x00000000)  returns 0x00 (0000ms, 1558ms total)
T1510 002:431 JLINK_SetBPEx(Addr = 0x20000000, Type = 0xFFFFFFF2)  returns 0x00000010 (0000ms, 1558ms total)
T1510 002:431 JLINK_Go() -- CPU_WriteMem(4 bytes @ 0xE0002008) -- CPU_WriteMem(4 bytes @ 0xE000200C) -- CPU_WriteMem(4 bytes @ 0xE0002010) -- CPU_WriteMem(4 bytes @ 0xE0002014) -- CPU_WriteMem(4 bytes @ 0xE0002018) -- CPU_WriteMem(4 bytes @ 0xE000201C) (0010ms, 1558ms total)
T1510 002:441 JLINK_IsHalted()  returns FALSE (0001ms, 1568ms total)
T1510 002:492 JLINK_IsHalted() -- CPU_ReadMem(2 bytes @ 0x20000000)  returns TRUE (0007ms, 1568ms total)
T1510 002:499 JLINK_ReadReg(R15)  returns 0x20000000 (0000ms, 1568ms total)
T1510 002:499 JLINK_ClrBPEx(BPHandle = 0x00000010)  returns 0x00 (0000ms, 1568ms total)
T1510 002:499 JLINK_ReadReg(R0)  returns 0x00000000 (0000ms, 1568ms total)
T1510 002:499 JLINK_WriteMem(0x20000164, 0x0400 Bytes, ...) -- Data:  A0 1E 84 B2 00 2C F6 D1 00 BF 15 F4 3F 4F 04 D1 ... -- CPU_WriteMem(1024 bytes @ 0x20000164)  returns 0x400 (0008ms, 1568ms total)
T1510 002:507 JLINK_WriteReg(R0, 0x08003000)  returns 0x00 (0000ms, 1576ms total)
T1510 002:507 JLINK_WriteReg(R1, 0x00000400)  returns 0x00 (0000ms, 1576ms total)
T1510 002:507 JLINK_WriteReg(R2, 0x20000164)  returns 0x00 (0000ms, 1576ms total)
T1510 002:507 JLINK_WriteReg(R3, 0x00000000)  returns 0x00 (0000ms, 1576ms total)
T1510 002:507 JLINK_WriteReg(R4, 0x00000000)  returns 0x00 (0000ms, 1576ms total)
T1510 002:507 JLINK_WriteReg(R5, 0x00000000)  returns 0x00 (0000ms, 1576ms total)
T1510 002:507 JLINK_WriteReg(R6, 0x00000000)  returns 0x00 (0000ms, 1576ms total)
T1510 002:507 JLINK_WriteReg(R7, 0x00000000)  returns 0x00 (0000ms, 1576ms total)
T1510 002:507 JLINK_WriteReg(R8, 0x00000000)  returns 0x00 (0000ms, 1576ms total)
T1510 002:507 JLINK_WriteReg(R9, 0x20000160)  returns 0x00 (0000ms, 1576ms total)
T1510 002:507 JLINK_WriteReg(R10, 0x00000000)  returns 0x00 (0000ms, 1576ms total)
T1510 002:507 JLINK_WriteReg(R11, 0x00000000)  returns 0x00 (0000ms, 1576ms total)
T1510 002:507 JLINK_WriteReg(R12, 0x00000000)  returns 0x00 (0000ms, 1576ms total)
T1510 002:507 JLINK_WriteReg(R13, 0x20000800)  returns 0x00 (0000ms, 1576ms total)
T1510 002:507 JLINK_WriteReg(R14, 0x20000001)  returns 0x00 (0000ms, 1576ms total)
T1510 002:507 JLINK_WriteReg(R15, 0x200000F4)  returns 0x00 (0000ms, 1576ms total)
T1510 002:507 JLINK_WriteReg(XPSR, 0x01000000)  returns 0x00 (0000ms, 1576ms total)
